
T18D0 000:486 SEGGER J-Link V5.12f Log File (0000ms, 0269ms total)
T18D0 000:486 DLL Compiled: May 17 2016 16:03:35 (0000ms, 0269ms total)
T18D0 000:486 Logging started @ 2017-09-22 17:49 (0000ms, 0269ms total)
T18D0 000:486 JLINK_SetWarnOutHandler(...) (0000ms, 0269ms total)
T18D0 000:486 JLINK_OpenEx(...)
Firmware: J-Link ARM-OB STM32 compiled Aug 22 2012 19:52:04
Hardware: V7.00
S/N: 20170217
Feature(s): RDI,FlashDL,FlashBP,JFlash,GDBFull  returns O.K. (0267ms, 0536ms total)
T18D0 000:753 JLINK_SetErrorOutHandler(...) (0000ms, 0536ms total)
T18D0 000:753 JLINK_ExecCommand("ProjectFile = "E:\projects\HeartRate\MXD2660_blood_pressure\projects\trunk\JLinkSettings.ini"", ...)Device "CORTEX-M0+" selected.  returns 0x00 (0008ms, 0544ms total)
T18D0 000:771 JLINK_ExecCommand("Device = ARMCM0P", ...)Device "CORTEX-M0" selected.  returns 0x00 (0006ms, 0550ms total)
T18D0 000:777 JLINK_ExecCommand("DisableConnectionTimeout", ...)  returns 0x01 (0000ms, 0550ms total)
T18D0 000:777 JLINK_GetHardwareVersion()  returns 0x11170 (0000ms, 0550ms total)
T18D0 000:777 JLINK_GetDLLVersion()  returns 51206 (0000ms, 0550ms total)
T18D0 000:777 JLINK_GetFirmwareString(...) (0000ms, 0550ms total)
T18D0 000:786 JLINK_GetDLLVersion()  returns 51206 (0000ms, 0550ms total)
T18D0 000:786 JLINK_GetCompileDateTime() (0000ms, 0550ms total)
T18D0 000:788 JLINK_GetFirmwareString(...) (0000ms, 0550ms total)
T18D0 000:791 JLINK_GetHardwareVersion()  returns 0x11170 (0000ms, 0550ms total)
T18D0 000:800 JLINK_TIF_Select(JLINKARM_TIF_SWD)  returns 0x00 (0001ms, 0551ms total)
T18D0 000:801 JLINK_SetSpeed(5000) (0001ms, 0552ms total)
T18D0 000:802 JLINK_GetId() >0x108 TIF>Found SWD-DP with ID 0x0BC11477 >0x0D TIF> >0x28 TIF> >0x0D TIF> >0x28 TIF> >0x0D TIF> >0x28 TIF> >0x0D TIF> >0x28 TIF> >0x0D TIF> >0x21 TIF> >0x0D TIF> >0x28 TIF> >0x0D TIF> >0x28 TIF> >0x0D TIF> >0x21 TIF> >0x0D TIF> >0x21 TIF> >0x0D TIF> >0x21 TIF> >0x0D TIF> >0x28 TIF> >0x0D TIF> >0x28 TIF> >0x0D TIF> >0x28 TIF> >0x0D TIF> >0x21 TIF> >0x0D TIF> >0x0D TIF> >0x0D TIF> >0x0D TIF> >0x0D TIF> >0x0D TIF> >0x0D TIF> >0x0D TIF> >0x0D TIF> >0x0D TIF> >0x0D TIF>
 >0x0D TIF> >0x21 TIF> >0x0D TIF> >0x28 TIF> >0x0D TIF> >0x21 TIF> >0x0D TIF> >0x0D TIF> >0x0D TIF> >0x0D TIF> >0x0D TIF> >0x0D TIF> >0x0D TIF> >0x0D TIF> >0x0D TIF> >0x0D TIF> >0x0D TIF> >0x0D TIF> >0x0D TIF> >0x0D TIF> >0x0D TIF> >0x0D TIF> >0x0D TIF> >0x0D TIF> >0x0D TIF> >0x0D TIF> >0x0D TIF> >0x0D TIF> >0x0D TIF> >0x0D TIF> >0x0D TIF> >0x0D TIF> >0x0D TIF> >0x21 TIF>Found Cortex-M0 r0p1, Little endian. -- CPU_ReadMem(4 bytes @ 0xE000EDF0) -- CPU_ReadMem(4 bytes @ 0xE0002000)
FPUnit: 4 code (BP) slots and 0 literal slots -- CPU_ReadMem(4 bytes @ 0xE000EDFC) -- CPU_ReadMem(4 bytes @ 0xE0001000) -- CPU_WriteMem(4 bytes @ 0xE0001000)CoreSight components:ROMTbl 0 @ E00FF000 -- CPU_ReadMem(16 bytes @ 0xE00FF000) -- CPU_ReadMem(16 bytes @ 0xE000EFF0) -- CPU_ReadMem(16 bytes @ 0xE000EFE0)ROMTbl 0 [0]: FFF0F000, CID: B105E00D, PID: 000BB008 SCS -- CPU_ReadMem(16 bytes @ 0xE0001FF0) -- CPU_ReadMem(16 bytes @ 0xE0001FE0)ROMTbl 0 [1]: FFF02000, CID: B105E00D, PID: 000BB00A DWT
 -- CPU_ReadMem(16 bytes @ 0xE0002FF0) -- CPU_ReadMem(16 bytes @ 0xE0002FE0)ROMTbl 0 [2]: FFF03000, CID: B105E00D, PID: 000BB00B FPB >0x0D TIF> >0x21 TIF>  returns 0x0BC11477 (0121ms, 0673ms total)
T18D0 000:924 JLINK_GetDLLVersion()  returns 51206 (0000ms, 0674ms total)
T18D0 000:924 JLINK_CORE_GetFound()  returns 0x60000FF (0000ms, 0674ms total)
T18D0 000:924 JLINK_GetDebugInfo(0x100) -- Value=0xE00FF000  returns 0x00 (0000ms, 0674ms total)
T18D0 000:928 JLINK_GetDebugInfo(0x100) -- Value=0xE00FF000  returns 0x00 (0001ms, 0675ms total)
T18D0 000:929 JLINK_GetDebugInfo(0x101) -- Value=0x00000000  returns 0x00 (0000ms, 0675ms total)
T18D0 000:929 JLINK_ReadMem (0xE0041FF0, 0x0010 Bytes, ...) -- CPU is running -- CPU_ReadMem(16 bytes @ 0xE0041FF0) - Data: 00 00 00 00 00 00 00 00 00 00 00 00 00 00 00 00  returns 0x00 (0006ms, 0681ms total)
T18D0 000:935 JLINK_GetDebugInfo(0x102) -- Value=0x00000000  returns 0x00 (0000ms, 0681ms total)
T18D0 000:935 JLINK_GetDebugInfo(0x103) -- Value=0x00000000  returns 0x00 (0000ms, 0681ms total)
T18D0 000:935 JLINK_ReadMem (0xE0040FF0, 0x0010 Bytes, ...) -- CPU is running -- CPU_ReadMem(16 bytes @ 0xE0040FF0) - Data: 00 00 00 00 00 00 00 00 00 00 00 00 00 00 00 00  returns 0x00 (0008ms, 0689ms total)
T18D0 000:943 JLINK_GetDebugInfo(0x104) -- Value=0xE0000000  returns 0x00 (0000ms, 0689ms total)
T18D0 000:943 JLINK_GetDebugInfo(0x105) -- Value=0xE0001000  returns 0x00 (0000ms, 0689ms total)
T18D0 000:943 JLINK_GetDebugInfo(0x106) -- Value=0xE0002000  returns 0x00 (0000ms, 0689ms total)
T18D0 000:943 JLINK_GetDebugInfo(0x107) -- Value=0xE000E000  returns 0x00 (0000ms, 0689ms total)
T18D0 000:944 JLINK_GetDebugInfo(0x10C) -- Value=0xE000EDF0  returns 0x00 (0000ms, 0690ms total)
T18D0 000:944 JLINK_ReadMemU32(0xE000ED00, 0x0001 Items, ...) -- CPU is running -- CPU_ReadMem(4 bytes @ 0xE000ED00) - Data: 01 C6 0C 41  returns 0x01 (0008ms, 0698ms total)
T18D0 000:952 JLINK_SetResetType(JLINKARM_RESET_TYPE_NORMAL)  returns JLINKARM_RESET_TYPE_NORMAL (0000ms, 0698ms total)
T18D0 000:952 JLINK_Reset() -- CPU is running -- CPU_WriteMem(4 bytes @ 0xE000EDF0) -- CPU is running -- CPU_WriteMem(4 bytes @ 0xE000EDFC) >0x35 TIF> -- CPU is running -- CPU_WriteMem(4 bytes @ 0xE000ED0C) -- CPU is running -- CPU_ReadMem(4 bytes @ 0xE000EDF0) -- CPU is running -- CPU_ReadMem(4 bytes @ 0xE000EDF0) -- CPU is running -- CPU_WriteMem(4 bytes @ 0xE000EDF0) -- CPU is running -- CPU_WriteMem(4 bytes @ 0xE000EDFC) -- CPU is running -- CPU_ReadMem(4 bytes @ 0xE000EDF0)
 -- CPU_WriteMem(4 bytes @ 0xE0002000) -- CPU_ReadMem(4 bytes @ 0xE000EDFC) -- CPU_ReadMem(4 bytes @ 0xE0001000) -- CPU_WriteMem(4 bytes @ 0xE0001000) (0023ms, 0721ms total)
T18D0 000:975 JLINK_Halt()  returns 0x00 (0000ms, 0721ms total)
T18D0 000:975 JLINK_IsHalted()  returns TRUE (0000ms, 0721ms total)
T18D0 000:975 JLINK_ReadMemU32(0xE000EDF0, 0x0001 Items, ...) -- CPU_ReadMem(4 bytes @ 0xE000EDF0) - Data: 03 00 03 01  returns 0x01 (0001ms, 0722ms total)
T18D0 000:976 JLINK_WriteU32(0xE000EDF0, 0xA05F0003) -- CPU_WriteMem(4 bytes @ 0xE000EDF0)  returns 0x00 (0001ms, 0723ms total)
T18D0 000:977 JLINK_WriteU32(0xE000EDFC, 0x01000000) -- CPU_WriteMem(4 bytes @ 0xE000EDFC)  returns 0x00 (0001ms, 0724ms total)
T18D0 000:999 JLINK_GetHWStatus(...)  returns 0x00 (0000ms, 0724ms total)
T18D0 001:016 JLINK_GetNumBPUnits(Type = 0xFFFFFF00)  returns 0x04 (0000ms, 0724ms total)
T18D0 001:016 JLINK_GetNumBPUnits(Type = 0xF0)  returns 0x2000 (0000ms, 0724ms total)
T18D0 001:016 JLINK_GetNumWPUnits()  returns 0x02 (0000ms, 0724ms total)
T18D0 001:026 JLINK_GetSpeed()  returns 0xFA0 (0000ms, 0724ms total)
T18D0 001:031 JLINK_ReadMemU32(0xE000E004, 0x0001 Items, ...) -- CPU_ReadMem(4 bytes @ 0xE000E004) - Data: 00 00 00 00  returns 0x01 (0001ms, 0725ms total)
T18D0 001:032 JLINK_Halt()  returns 0x00 (0000ms, 0725ms total)
T18D0 001:032 JLINK_IsHalted()  returns TRUE (0000ms, 0725ms total)
T18D0 001:035 JLINK_WriteMem(0x20000000, 0x0C6C Bytes, ...) - Data: 00 BE 0A E0 0D 78 2D 06 68 40 08 24 40 00 00 D3 ... -- CPU_WriteMem(3180 bytes @ 0x20000000)  returns 0xC6C (0038ms, 0763ms total)
T18D0 001:073 JLINK_WriteReg(R0, 0x00000000)  returns 0x00 (0000ms, 0763ms total)
T18D0 001:073 JLINK_WriteReg(R1, 0x00B71B00)  returns 0x00 (0000ms, 0763ms total)
T18D0 001:073 JLINK_WriteReg(R2, 0x00000001)  returns 0x00 (0000ms, 0763ms total)
T18D0 001:073 JLINK_WriteReg(R3, 0x00000000)  returns 0x00 (0000ms, 0763ms total)
T18D0 001:073 JLINK_WriteReg(R4, 0x00000000)  returns 0x00 (0000ms, 0763ms total)
T18D0 001:073 JLINK_WriteReg(R5, 0x00000000)  returns 0x00 (0000ms, 0763ms total)
T18D0 001:073 JLINK_WriteReg(R6, 0x00000000)  returns 0x00 (0000ms, 0763ms total)
T18D0 001:073 JLINK_WriteReg(R7, 0x00000000)  returns 0x00 (0000ms, 0763ms total)
T18D0 001:073 JLINK_WriteReg(R8, 0x00000000)  returns 0x00 (0000ms, 0763ms total)
T18D0 001:073 JLINK_WriteReg(R9, 0x20000C38)  returns 0x00 (0000ms, 0763ms total)
T18D0 001:073 JLINK_WriteReg(R10, 0x00000000)  returns 0x00 (0000ms, 0763ms total)
T18D0 001:073 JLINK_WriteReg(R11, 0x00000000)  returns 0x00 (0000ms, 0763ms total)
T18D0 001:073 JLINK_WriteReg(R12, 0x00000000)  returns 0x00 (0000ms, 0763ms total)
T18D0 001:073 JLINK_WriteReg(R13 (SP), 0x20003000)  returns 0x00 (0000ms, 0763ms total)
T18D0 001:073 JLINK_WriteReg(R14, 0x20000001)  returns 0x00 (0000ms, 0763ms total)
T18D0 001:073 JLINK_WriteReg(R15 (PC), 0x200002D0)  returns 0x00 (0000ms, 0763ms total)
T18D0 001:073 JLINK_WriteReg(XPSR, 0x01000000)  returns 0x00 (0000ms, 0763ms total)
T18D0 001:073 JLINK_WriteReg(MSP, 0x20003000)  returns 0x00 (0000ms, 0763ms total)
T18D0 001:073 JLINK_WriteReg(PSP, 0x20003000)  returns 0x00 (0000ms, 0763ms total)
T18D0 001:073 JLINK_WriteReg(CFBP, 0x00000000)  returns 0x00 (0000ms, 0763ms total)
T18D0 001:073 JLINK_SetBPEx(Addr = 0x20000000, Type = 0xFFFFFFF2) -- CPU_ReadMem(4 bytes @ 0x20000000) -- CPU_WriteMem(4 bytes @ 0x20000000) -- CPU_ReadMem(4 bytes @ 0x20000000) -- CPU_WriteMem(4 bytes @ 0x20000000) -- CPU_ReadMem(2 bytes @ 0x20000000)  returns 0x00000001 (0004ms, 0767ms total)
T18D0 001:077 JLINK_Go() -- CPU_WriteMem(2 bytes @ 0x20000000) -- CPU_ReadMem(4 bytes @ 0xE0001000) -- CPU_WriteMem(4 bytes @ 0xE0001000) -- CPU_WriteMem(4 bytes @ 0xE0002008) -- CPU_WriteMem(4 bytes @ 0xE000200C) -- CPU_WriteMem(4 bytes @ 0xE0002010) -- CPU_WriteMem(4 bytes @ 0xE0002014) -- CPU_WriteMem(4 bytes @ 0xE0001004) (0008ms, 0775ms total)
T18D0 001:085 JLINK_IsHalted() -- CPU_ReadMem(2 bytes @ 0x20000000)  returns TRUE (0005ms, 0780ms total)
T18D0 001:090 JLINK_ReadReg(R15 (PC))  returns 0x20000000 (0000ms, 0775ms total)
T18D0 001:090 JLINK_ClrBPEx(BPHandle = 0x00000001)  returns 0x00 (0000ms, 0775ms total)
T18D0 001:090 JLINK_ReadReg(R0)  returns 0x00000000 (0000ms, 0775ms total)
T18D0 001:091 JLINK_WriteReg(R0, 0x00000000)  returns 0x00 (0000ms, 0775ms total)
T18D0 001:091 JLINK_WriteReg(R1, 0x00B71B00)  returns 0x00 (0000ms, 0775ms total)
T18D0 001:091 JLINK_WriteReg(R2, 0x00000001)  returns 0x00 (0000ms, 0775ms total)
T18D0 001:091 JLINK_WriteReg(R3, 0x00000000)  returns 0x00 (0000ms, 0775ms total)
T18D0 001:091 JLINK_WriteReg(R4, 0x00000000)  returns 0x00 (0000ms, 0775ms total)
T18D0 001:091 JLINK_WriteReg(R5, 0x00000000)  returns 0x00 (0000ms, 0775ms total)
T18D0 001:091 JLINK_WriteReg(R6, 0x00000000)  returns 0x00 (0000ms, 0775ms total)
T18D0 001:091 JLINK_WriteReg(R7, 0x00000000)  returns 0x00 (0000ms, 0775ms total)
T18D0 001:091 JLINK_WriteReg(R8, 0x00000000)  returns 0x00 (0000ms, 0775ms total)
T18D0 001:091 JLINK_WriteReg(R9, 0x20000C38)  returns 0x00 (0000ms, 0775ms total)
T18D0 001:091 JLINK_WriteReg(R10, 0x00000000)  returns 0x00 (0000ms, 0775ms total)
T18D0 001:091 JLINK_WriteReg(R11, 0x00000000)  returns 0x00 (0000ms, 0775ms total)
T18D0 001:091 JLINK_WriteReg(R12, 0x00000000)  returns 0x00 (0000ms, 0775ms total)
T18D0 001:091 JLINK_WriteReg(R13 (SP), 0x20003000)  returns 0x00 (0000ms, 0775ms total)
T18D0 001:091 JLINK_WriteReg(R14, 0x20000001)  returns 0x00 (0000ms, 0775ms total)
T18D0 001:091 JLINK_WriteReg(R15 (PC), 0x20000320)  returns 0x00 (0000ms, 0775ms total)
T18D0 001:092 JLINK_WriteReg(XPSR, 0x01000000)  returns 0x00 (0000ms, 0775ms total)
T18D0 001:092 JLINK_WriteReg(MSP, 0x20003000)  returns 0x00 (0000ms, 0775ms total)
T18D0 001:092 JLINK_WriteReg(PSP, 0x20003000)  returns 0x00 (0000ms, 0775ms total)
T18D0 001:092 JLINK_WriteReg(CFBP, 0x00000000)  returns 0x00 (0000ms, 0775ms total)
T18D0 001:092 JLINK_SetBPEx(Addr = 0x20000000, Type = 0xFFFFFFF2)  returns 0x00000002 (0000ms, 0775ms total)
T18D0 001:092 JLINK_Go() -- CPU_ReadMem(4 bytes @ 0xE0001000) -- CPU_WriteMem(4 bytes @ 0xE0001000) (0004ms, 0779ms total)
T18D0 001:096 JLINK_IsHalted()  returns FALSE (0001ms, 0780ms total)
T18D0 001:149 JLINK_IsHalted()  returns FALSE (0000ms, 0779ms total)
T18D0 001:150 JLINK_IsHalted()  returns FALSE (0000ms, 0779ms total)
T18D0 001:151 JLINK_IsHalted()  returns FALSE (0000ms, 0779ms total)
T18D0 001:152 JLINK_IsHalted()  returns FALSE (0000ms, 0779ms total)
T18D0 001:153 JLINK_IsHalted()  returns FALSE (0000ms, 0779ms total)
T18D0 001:154 JLINK_IsHalted()  returns FALSE (0000ms, 0779ms total)
T18D0 001:155 JLINK_IsHalted()  returns FALSE (0000ms, 0779ms total)
T18D0 001:156 JLINK_IsHalted()  returns FALSE (0000ms, 0779ms total)
T18D0 001:157 JLINK_IsHalted()  returns FALSE (0000ms, 0779ms total)
T18D0 001:158 JLINK_IsHalted() -- CPU_ReadMem(2 bytes @ 0x20000000)  returns TRUE (0004ms, 0783ms total)
T18D0 001:162 JLINK_ReadReg(R15 (PC))  returns 0x20000000 (0000ms, 0779ms total)
T18D0 001:162 JLINK_ClrBPEx(BPHandle = 0x00000002)  returns 0x00 (0000ms, 0779ms total)
T18D0 001:162 JLINK_ReadReg(R0)  returns 0x00000000 (0000ms, 0779ms total)
T18D0 001:214 JLINK_WriteReg(R0, 0x00000001)  returns 0x00 (0000ms, 0779ms total)
T18D0 001:214 JLINK_WriteReg(R1, 0x00B71B00)  returns 0x00 (0000ms, 0779ms total)
T18D0 001:214 JLINK_WriteReg(R2, 0x00000001)  returns 0x00 (0000ms, 0779ms total)
T18D0 001:214 JLINK_WriteReg(R3, 0x00000000)  returns 0x00 (0000ms, 0779ms total)
T18D0 001:214 JLINK_WriteReg(R4, 0x00000000)  returns 0x00 (0000ms, 0779ms total)
T18D0 001:214 JLINK_WriteReg(R5, 0x00000000)  returns 0x00 (0000ms, 0779ms total)
T18D0 001:214 JLINK_WriteReg(R6, 0x00000000)  returns 0x00 (0000ms, 0779ms total)
T18D0 001:214 JLINK_WriteReg(R7, 0x00000000)  returns 0x00 (0000ms, 0779ms total)
T18D0 001:214 JLINK_WriteReg(R8, 0x00000000)  returns 0x00 (0000ms, 0779ms total)
T18D0 001:214 JLINK_WriteReg(R9, 0x20000C38)  returns 0x00 (0000ms, 0779ms total)
T18D0 001:214 JLINK_WriteReg(R10, 0x00000000)  returns 0x00 (0000ms, 0779ms total)
T18D0 001:214 JLINK_WriteReg(R11, 0x00000000)  returns 0x00 (0000ms, 0779ms total)
T18D0 001:214 JLINK_WriteReg(R12, 0x00000000)  returns 0x00 (0000ms, 0779ms total)
T18D0 001:214 JLINK_WriteReg(R13 (SP), 0x20003000)  returns 0x00 (0000ms, 0779ms total)
T18D0 001:214 JLINK_WriteReg(R14, 0x20000001)  returns 0x00 (0001ms, 0780ms total)
T18D0 001:215 JLINK_WriteReg(R15 (PC), 0x20000302)  returns 0x00 (0000ms, 0780ms total)
T18D0 001:215 JLINK_WriteReg(XPSR, 0x01000000)  returns 0x00 (0000ms, 0780ms total)
T18D0 001:215 JLINK_WriteReg(MSP, 0x20003000)  returns 0x00 (0000ms, 0780ms total)
T18D0 001:215 JLINK_WriteReg(PSP, 0x20003000)  returns 0x00 (0000ms, 0780ms total)
T18D0 001:215 JLINK_WriteReg(CFBP, 0x00000000)  returns 0x00 (0000ms, 0780ms total)
T18D0 001:215 JLINK_SetBPEx(Addr = 0x20000000, Type = 0xFFFFFFF2)  returns 0x00000003 (0000ms, 0780ms total)
T18D0 001:215 JLINK_Go() -- CPU_ReadMem(4 bytes @ 0xE0001000) -- CPU_WriteMem(4 bytes @ 0xE0001000) (0004ms, 0784ms total)
T18D0 001:219 JLINK_IsHalted() -- CPU_ReadMem(2 bytes @ 0x20000000)  returns TRUE (0005ms, 0789ms total)
T18D0 001:224 JLINK_ReadReg(R15 (PC))  returns 0x20000000 (0000ms, 0784ms total)
T18D0 001:224 JLINK_ClrBPEx(BPHandle = 0x00000003)  returns 0x00 (0000ms, 0784ms total)
T18D0 001:224 JLINK_ReadReg(R0)  returns 0x00000000 (0000ms, 0784ms total)
T18D0 001:231 JLINK_WriteMem(0x20000000, 0x0C6C Bytes, ...) - Data: 00 BE 0A E0 0D 78 2D 06 68 40 08 24 40 00 00 D3 ... -- CPU_WriteMem(3180 bytes @ 0x20000000)  returns 0xC6C (0037ms, 0821ms total)
T18D0 001:269 JLINK_WriteReg(R0, 0x00000000)  returns 0x00 (0000ms, 0821ms total)
T18D0 001:269 JLINK_WriteReg(R1, 0x00B71B00)  returns 0x00 (0000ms, 0821ms total)
T18D0 001:269 JLINK_WriteReg(R2, 0x00000002)  returns 0x00 (0000ms, 0821ms total)
T18D0 001:269 JLINK_WriteReg(R3, 0x00000000)  returns 0x00 (0000ms, 0821ms total)
T18D0 001:269 JLINK_WriteReg(R4, 0x00000000)  returns 0x00 (0000ms, 0821ms total)
T18D0 001:269 JLINK_WriteReg(R5, 0x00000000)  returns 0x00 (0000ms, 0821ms total)
T18D0 001:269 JLINK_WriteReg(R6, 0x00000000)  returns 0x00 (0000ms, 0821ms total)
T18D0 001:269 JLINK_WriteReg(R7, 0x00000000)  returns 0x00 (0000ms, 0821ms total)
T18D0 001:269 JLINK_WriteReg(R8, 0x00000000)  returns 0x00 (0000ms, 0821ms total)
T18D0 001:269 JLINK_WriteReg(R9, 0x20000C38)  returns 0x00 (0000ms, 0821ms total)
T18D0 001:269 JLINK_WriteReg(R10, 0x00000000)  returns 0x00 (0000ms, 0821ms total)
T18D0 001:269 JLINK_WriteReg(R11, 0x00000000)  returns 0x00 (0000ms, 0821ms total)
T18D0 001:269 JLINK_WriteReg(R12, 0x00000000)  returns 0x00 (0000ms, 0821ms total)
T18D0 001:269 JLINK_WriteReg(R13 (SP), 0x20003000)  returns 0x00 (0000ms, 0821ms total)
T18D0 001:269 JLINK_WriteReg(R14, 0x20000001)  returns 0x00 (0000ms, 0821ms total)
T18D0 001:269 JLINK_WriteReg(R15 (PC), 0x200002D0)  returns 0x00 (0000ms, 0821ms total)
T18D0 001:269 JLINK_WriteReg(XPSR, 0x01000000)  returns 0x00 (0000ms, 0821ms total)
T18D0 001:269 JLINK_WriteReg(MSP, 0x20003000)  returns 0x00 (0000ms, 0821ms total)
T18D0 001:269 JLINK_WriteReg(PSP, 0x20003000)  returns 0x00 (0000ms, 0821ms total)
T18D0 001:269 JLINK_WriteReg(CFBP, 0x00000000)  returns 0x00 (0000ms, 0821ms total)
T18D0 001:269 JLINK_SetBPEx(Addr = 0x20000000, Type = 0xFFFFFFF2) -- CPU_ReadMem(4 bytes @ 0x20000000) -- CPU_WriteMem(4 bytes @ 0x20000000) -- CPU_ReadMem(4 bytes @ 0x20000000) -- CPU_WriteMem(4 bytes @ 0x20000000) -- CPU_ReadMem(2 bytes @ 0x20000000)  returns 0x00000004 (0004ms, 0825ms total)
T18D0 001:273 JLINK_Go() -- CPU_WriteMem(2 bytes @ 0x20000000) -- CPU_ReadMem(4 bytes @ 0xE0001000) -- CPU_WriteMem(4 bytes @ 0xE0001000) (0004ms, 0829ms total)
T18D0 001:277 JLINK_IsHalted()  returns FALSE (0000ms, 0829ms total)
T18D0 001:283 JLINK_IsHalted()  returns FALSE (0000ms, 0829ms total)
T18D0 001:284 JLINK_IsHalted()  returns FALSE (0000ms, 0829ms total)
T18D0 001:285 JLINK_IsHalted() -- CPU_ReadMem(2 bytes @ 0x20000000)  returns TRUE (0004ms, 0833ms total)
T18D0 001:289 JLINK_ReadReg(R15 (PC))  returns 0x20000000 (0000ms, 0829ms total)
T18D0 001:289 JLINK_ClrBPEx(BPHandle = 0x00000004)  returns 0x00 (0000ms, 0829ms total)
T18D0 001:289 JLINK_ReadReg(R0)  returns 0x00000000 (0000ms, 0829ms total)
T18D0 001:289 JLINK_WriteMem(0x20000C9C, 0x0200 Bytes, ...) - Data: 00 80 00 20 01 20 00 00 09 20 00 00 13 20 00 00 ... -- CPU_WriteMem(512 bytes @ 0x20000C9C)  returns 0x200 (0007ms, 0836ms total)
T18D0 001:296 JLINK_WriteReg(R0, 0x00000000)  returns 0x00 (0000ms, 0836ms total)
T18D0 001:296 JLINK_WriteReg(R1, 0x00000200)  returns 0x00 (0000ms, 0836ms total)
T18D0 001:296 JLINK_WriteReg(R2, 0x20000C9C)  returns 0x00 (0000ms, 0836ms total)
T18D0 001:296 JLINK_WriteReg(R3, 0x00000000)  returns 0x00 (0000ms, 0836ms total)
T18D0 001:296 JLINK_WriteReg(R4, 0x00000000)  returns 0x00 (0000ms, 0836ms total)
T18D0 001:296 JLINK_WriteReg(R5, 0x00000000)  returns 0x00 (0001ms, 0837ms total)
T18D0 001:297 JLINK_WriteReg(R6, 0x00000000)  returns 0x00 (0000ms, 0837ms total)
T18D0 001:297 JLINK_WriteReg(R7, 0x00000000)  returns 0x00 (0000ms, 0837ms total)
T18D0 001:297 JLINK_WriteReg(R8, 0x00000000)  returns 0x00 (0000ms, 0837ms total)
T18D0 001:297 JLINK_WriteReg(R9, 0x20000C38)  returns 0x00 (0000ms, 0837ms total)
T18D0 001:297 JLINK_WriteReg(R10, 0x00000000)  returns 0x00 (0000ms, 0837ms total)
T18D0 001:297 JLINK_WriteReg(R11, 0x00000000)  returns 0x00 (0000ms, 0837ms total)
T18D0 001:297 JLINK_WriteReg(R12, 0x00000000)  returns 0x00 (0000ms, 0837ms total)
T18D0 001:297 JLINK_WriteReg(R13 (SP), 0x20003000)  returns 0x00 (0000ms, 0837ms total)
T18D0 001:297 JLINK_WriteReg(R14, 0x20000001)  returns 0x00 (0000ms, 0837ms total)
T18D0 001:297 JLINK_WriteReg(R15 (PC), 0x20000346)  returns 0x00 (0000ms, 0837ms total)
T18D0 001:297 JLINK_WriteReg(XPSR, 0x01000000)  returns 0x00 (0000ms, 0837ms total)
T18D0 001:297 JLINK_WriteReg(MSP, 0x20003000)  returns 0x00 (0000ms, 0837ms total)
T18D0 001:297 JLINK_WriteReg(PSP, 0x20003000)  returns 0x00 (0000ms, 0837ms total)
T18D0 001:297 JLINK_WriteReg(CFBP, 0x00000000)  returns 0x00 (0000ms, 0837ms total)
T18D0 001:297 JLINK_SetBPEx(Addr = 0x20000000, Type = 0xFFFFFFF2)  returns 0x00000005 (0000ms, 0837ms total)
T18D0 001:297 JLINK_Go() -- CPU_ReadMem(4 bytes @ 0xE0001000) -- CPU_WriteMem(4 bytes @ 0xE0001000) (0004ms, 0841ms total)
T18D0 001:301 JLINK_IsHalted()  returns FALSE (0000ms, 0841ms total)
T18D0 001:302 JLINK_IsHalted()  returns FALSE (0000ms, 0841ms total)
T18D0 001:303 JLINK_IsHalted()  returns FALSE (0000ms, 0841ms total)
T18D0 001:304 JLINK_IsHalted()  returns FALSE (0000ms, 0841ms total)
T18D0 001:305 JLINK_IsHalted()  returns FALSE (0000ms, 0841ms total)
T18D0 001:306 JLINK_IsHalted()  returns FALSE (0000ms, 0841ms total)
T18D0 001:307 JLINK_IsHalted()  returns FALSE (0000ms, 0841ms total)
T18D0 001:308 JLINK_IsHalted()  returns FALSE (0000ms, 0841ms total)
T18D0 001:309 JLINK_IsHalted()  returns FALSE (0000ms, 0841ms total)
T18D0 001:310 JLINK_IsHalted()  returns FALSE (0000ms, 0841ms total)
T18D0 001:311 JLINK_IsHalted()  returns FALSE (0000ms, 0841ms total)
T18D0 001:312 JLINK_IsHalted()  returns FALSE (0000ms, 0841ms total)
T18D0 001:313 JLINK_IsHalted()  returns FALSE (0000ms, 0841ms total)
T18D0 001:314 JLINK_IsHalted()  returns FALSE (0000ms, 0841ms total)
T18D0 001:315 JLINK_IsHalted()  returns FALSE (0000ms, 0841ms total)
T18D0 001:316 JLINK_IsHalted()  returns FALSE (0000ms, 0841ms total)
T18D0 001:317 JLINK_IsHalted()  returns FALSE (0000ms, 0841ms total)
T18D0 001:318 JLINK_IsHalted()  returns FALSE (0000ms, 0841ms total)
T18D0 001:319 JLINK_IsHalted()  returns FALSE (0000ms, 0841ms total)
T18D0 001:320 JLINK_IsHalted() -- CPU_ReadMem(2 bytes @ 0x20000000)  returns TRUE (0004ms, 0845ms total)
T18D0 001:325 JLINK_ReadReg(R15 (PC))  returns 0x20000000 (0000ms, 0841ms total)
T18D0 001:325 JLINK_ClrBPEx(BPHandle = 0x00000005)  returns 0x00 (0000ms, 0841ms total)
T18D0 001:325 JLINK_ReadReg(R0)  returns 0x00000000 (0000ms, 0841ms total)
T18D0 001:326 JLINK_WriteMem(0x20000C9C, 0x0200 Bytes, ...) - Data: 40 6B 00 28 00 D0 00 47 70 47 3F 48 80 38 80 6B ... -- CPU_WriteMem(512 bytes @ 0x20000C9C)  returns 0x200 (0007ms, 0848ms total)
T18D0 001:333 JLINK_WriteReg(R0, 0x00000200)  returns 0x00 (0000ms, 0848ms total)
T18D0 001:333 JLINK_WriteReg(R1, 0x00000200)  returns 0x00 (0000ms, 0848ms total)
T18D0 001:333 JLINK_WriteReg(R2, 0x20000C9C)  returns 0x00 (0000ms, 0848ms total)
T18D0 001:333 JLINK_WriteReg(R3, 0x00000000)  returns 0x00 (0000ms, 0848ms total)
T18D0 001:333 JLINK_WriteReg(R4, 0x00000000)  returns 0x00 (0000ms, 0848ms total)
T18D0 001:333 JLINK_WriteReg(R5, 0x00000000)  returns 0x00 (0000ms, 0848ms total)
T18D0 001:333 JLINK_WriteReg(R6, 0x00000000)  returns 0x00 (0000ms, 0848ms total)
T18D0 001:333 JLINK_WriteReg(R7, 0x00000000)  returns 0x00 (0000ms, 0848ms total)
T18D0 001:333 JLINK_WriteReg(R8, 0x00000000)  returns 0x00 (0000ms, 0848ms total)
T18D0 001:333 JLINK_WriteReg(R9, 0x20000C38)  returns 0x00 (0000ms, 0848ms total)
T18D0 001:333 JLINK_WriteReg(R10, 0x00000000)  returns 0x00 (0000ms, 0848ms total)
T18D0 001:333 JLINK_WriteReg(R11, 0x00000000)  returns 0x00 (0000ms, 0848ms total)
T18D0 001:333 JLINK_WriteReg(R12, 0x00000000)  returns 0x00 (0000ms, 0848ms total)
T18D0 001:333 JLINK_WriteReg(R13 (SP), 0x20003000)  returns 0x00 (0000ms, 0848ms total)
T18D0 001:333 JLINK_WriteReg(R14, 0x20000001)  returns 0x00 (0000ms, 0848ms total)
T18D0 001:333 JLINK_WriteReg(R15 (PC), 0x20000346)  returns 0x00 (0000ms, 0848ms total)
T18D0 001:333 JLINK_WriteReg(XPSR, 0x01000000)  returns 0x00 (0000ms, 0848ms total)
T18D0 001:333 JLINK_WriteReg(MSP, 0x20003000)  returns 0x00 (0000ms, 0848ms total)
T18D0 001:333 JLINK_WriteReg(PSP, 0x20003000)  returns 0x00 (0000ms, 0848ms total)
T18D0 001:333 JLINK_WriteReg(CFBP, 0x00000000)  returns 0x00 (0000ms, 0848ms total)
T18D0 001:333 JLINK_SetBPEx(Addr = 0x20000000, Type = 0xFFFFFFF2)  returns 0x00000006 (0000ms, 0848ms total)
T18D0 001:333 JLINK_Go() -- CPU_ReadMem(4 bytes @ 0xE0001000) -- CPU_WriteMem(4 bytes @ 0xE0001000) (0005ms, 0853ms total)
T18D0 001:338 JLINK_IsHalted()  returns FALSE (0001ms, 0854ms total)
T18D0 001:340 JLINK_IsHalted()  returns FALSE (0000ms, 0853ms total)
T18D0 001:341 JLINK_IsHalted()  returns FALSE (0001ms, 0854ms total)
T18D0 001:343 JLINK_IsHalted()  returns FALSE (0000ms, 0853ms total)
T18D0 001:344 JLINK_IsHalted()  returns FALSE (0000ms, 0853ms total)
T18D0 001:345 JLINK_IsHalted()  returns FALSE (0000ms, 0853ms total)
T18D0 001:346 JLINK_IsHalted()  returns FALSE (0000ms, 0853ms total)
T18D0 001:347 JLINK_IsHalted()  returns FALSE (0000ms, 0853ms total)
T18D0 001:351 JLINK_IsHalted()  returns FALSE (0000ms, 0853ms total)
T18D0 001:352 JLINK_IsHalted()  returns FALSE (0000ms, 0853ms total)
T18D0 001:353 JLINK_IsHalted()  returns FALSE (0000ms, 0853ms total)
T18D0 001:354 JLINK_IsHalted()  returns FALSE (0000ms, 0853ms total)
T18D0 001:355 JLINK_IsHalted()  returns FALSE (0000ms, 0853ms total)
T18D0 001:356 JLINK_IsHalted()  returns FALSE (0000ms, 0853ms total)
T18D0 001:357 JLINK_IsHalted() -- CPU_ReadMem(2 bytes @ 0x20000000)  returns TRUE (0004ms, 0857ms total)
T18D0 001:361 JLINK_ReadReg(R15 (PC))  returns 0x20000000 (0000ms, 0853ms total)
T18D0 001:361 JLINK_ClrBPEx(BPHandle = 0x00000006)  returns 0x00 (0000ms, 0853ms total)
T18D0 001:361 JLINK_ReadReg(R0)  returns 0x00000000 (0000ms, 0853ms total)
T18D0 001:362 JLINK_WriteMem(0x20000C9C, 0x0200 Bytes, ...) - Data: 07 04 06 20 00 40 00 40 40 0D 03 00 F0 B5 00 25 ... -- CPU_WriteMem(512 bytes @ 0x20000C9C)  returns 0x200 (0006ms, 0859ms total)
T18D0 001:368 JLINK_WriteReg(R0, 0x00000400)  returns 0x00 (0000ms, 0859ms total)
T18D0 001:368 JLINK_WriteReg(R1, 0x00000200)  returns 0x00 (0000ms, 0859ms total)
T18D0 001:368 JLINK_WriteReg(R2, 0x20000C9C)  returns 0x00 (0000ms, 0859ms total)
T18D0 001:368 JLINK_WriteReg(R3, 0x00000000)  returns 0x00 (0000ms, 0859ms total)
T18D0 001:369 JLINK_WriteReg(R4, 0x00000000)  returns 0x00 (0000ms, 0860ms total)
T18D0 001:369 JLINK_WriteReg(R5, 0x00000000)  returns 0x00 (0000ms, 0860ms total)
T18D0 001:369 JLINK_WriteReg(R6, 0x00000000)  returns 0x00 (0000ms, 0860ms total)
T18D0 001:369 JLINK_WriteReg(R7, 0x00000000)  returns 0x00 (0000ms, 0860ms total)
T18D0 001:369 JLINK_WriteReg(R8, 0x00000000)  returns 0x00 (0000ms, 0860ms total)
T18D0 001:369 JLINK_WriteReg(R9, 0x20000C38)  returns 0x00 (0000ms, 0860ms total)
T18D0 001:369 JLINK_WriteReg(R10, 0x00000000)  returns 0x00 (0000ms, 0860ms total)
T18D0 001:369 JLINK_WriteReg(R11, 0x00000000)  returns 0x00 (0000ms, 0860ms total)
T18D0 001:369 JLINK_WriteReg(R12, 0x00000000)  returns 0x00 (0000ms, 0860ms total)
T18D0 001:369 JLINK_WriteReg(R13 (SP), 0x20003000)  returns 0x00 (0000ms, 0860ms total)
T18D0 001:369 JLINK_WriteReg(R14, 0x20000001)  returns 0x00 (0000ms, 0860ms total)
T18D0 001:369 JLINK_WriteReg(R15 (PC), 0x20000346)  returns 0x00 (0000ms, 0860ms total)
T18D0 001:369 JLINK_WriteReg(XPSR, 0x01000000)  returns 0x00 (0000ms, 0860ms total)
T18D0 001:369 JLINK_WriteReg(MSP, 0x20003000)  returns 0x00 (0000ms, 0860ms total)
T18D0 001:369 JLINK_WriteReg(PSP, 0x20003000)  returns 0x00 (0000ms, 0860ms total)
T18D0 001:369 JLINK_WriteReg(CFBP, 0x00000000)  returns 0x00 (0000ms, 0860ms total)
T18D0 001:369 JLINK_SetBPEx(Addr = 0x20000000, Type = 0xFFFFFFF2)  returns 0x00000007 (0000ms, 0860ms total)
T18D0 001:369 JLINK_Go() -- CPU_ReadMem(4 bytes @ 0xE0001000) -- CPU_WriteMem(4 bytes @ 0xE0001000) (0004ms, 0864ms total)
T18D0 001:373 JLINK_IsHalted()  returns FALSE (0001ms, 0865ms total)
T18D0 001:375 JLINK_IsHalted()  returns FALSE (0000ms, 0864ms total)
T18D0 001:376 JLINK_IsHalted()  returns FALSE (0000ms, 0864ms total)
T18D0 001:377 JLINK_IsHalted()  returns FALSE (0000ms, 0864ms total)
T18D0 001:378 JLINK_IsHalted()  returns FALSE (0000ms, 0864ms total)
T18D0 001:379 JLINK_IsHalted()  returns FALSE (0000ms, 0864ms total)
T18D0 001:382 JLINK_IsHalted()  returns FALSE (0000ms, 0864ms total)
T18D0 001:383 JLINK_IsHalted()  returns FALSE (0000ms, 0864ms total)
T18D0 001:384 JLINK_IsHalted()  returns FALSE (0000ms, 0864ms total)
T18D0 001:385 JLINK_IsHalted()  returns FALSE (0000ms, 0864ms total)
T18D0 001:386 JLINK_IsHalted()  returns FALSE (0000ms, 0864ms total)
T18D0 001:387 JLINK_IsHalted()  returns FALSE (0000ms, 0864ms total)
T18D0 001:388 JLINK_IsHalted()  returns FALSE (0000ms, 0864ms total)
T18D0 001:389 JLINK_IsHalted()  returns FALSE (0000ms, 0864ms total)
T18D0 001:390 JLINK_IsHalted()  returns FALSE (0000ms, 0864ms total)
T18D0 001:391 JLINK_IsHalted()  returns FALSE (0000ms, 0864ms total)
T18D0 001:392 JLINK_IsHalted() -- CPU_ReadMem(2 bytes @ 0x20000000)  returns TRUE (0004ms, 0868ms total)
T18D0 001:396 JLINK_ReadReg(R15 (PC))  returns 0x20000000 (0000ms, 0864ms total)
T18D0 001:396 JLINK_ClrBPEx(BPHandle = 0x00000007)  returns 0x00 (0000ms, 0864ms total)
T18D0 001:396 JLINK_ReadReg(R0)  returns 0x00000000 (0000ms, 0864ms total)
T18D0 001:397 JLINK_WriteMem(0x20000C9C, 0x0200 Bytes, ...) - Data: 00 90 40 18 08 AA 80 21 FF F7 00 FF 02 99 00 98 ... -- CPU_WriteMem(512 bytes @ 0x20000C9C)  returns 0x200 (0006ms, 0870ms total)
T18D0 001:404 JLINK_WriteReg(R0, 0x00000600)  returns 0x00 (0000ms, 0870ms total)
T18D0 001:404 JLINK_WriteReg(R1, 0x00000200)  returns 0x00 (0000ms, 0870ms total)
T18D0 001:404 JLINK_WriteReg(R2, 0x20000C9C)  returns 0x00 (0000ms, 0870ms total)
T18D0 001:404 JLINK_WriteReg(R3, 0x00000000)  returns 0x00 (0000ms, 0870ms total)
T18D0 001:404 JLINK_WriteReg(R4, 0x00000000)  returns 0x00 (0000ms, 0870ms total)
T18D0 001:404 JLINK_WriteReg(R5, 0x00000000)  returns 0x00 (0000ms, 0870ms total)
T18D0 001:404 JLINK_WriteReg(R6, 0x00000000)  returns 0x00 (0000ms, 0870ms total)
T18D0 001:404 JLINK_WriteReg(R7, 0x00000000)  returns 0x00 (0000ms, 0870ms total)
T18D0 001:404 JLINK_WriteReg(R8, 0x00000000)  returns 0x00 (0000ms, 0870ms total)
T18D0 001:404 JLINK_WriteReg(R9, 0x20000C38)  returns 0x00 (0000ms, 0870ms total)
T18D0 001:404 JLINK_WriteReg(R10, 0x00000000)  returns 0x00 (0000ms, 0870ms total)
T18D0 001:404 JLINK_WriteReg(R11, 0x00000000)  returns 0x00 (0000ms, 0870ms total)
T18D0 001:404 JLINK_WriteReg(R12, 0x00000000)  returns 0x00 (0000ms, 0870ms total)
T18D0 001:404 JLINK_WriteReg(R13 (SP), 0x20003000)  returns 0x00 (0000ms, 0870ms total)
T18D0 001:404 JLINK_WriteReg(R14, 0x20000001)  returns 0x00 (0000ms, 0870ms total)
T18D0 001:404 JLINK_WriteReg(R15 (PC), 0x20000346)  returns 0x00 (0000ms, 0870ms total)
T18D0 001:404 JLINK_WriteReg(XPSR, 0x01000000)  returns 0x00 (0000ms, 0870ms total)
T18D0 001:404 JLINK_WriteReg(MSP, 0x20003000)  returns 0x00 (0000ms, 0870ms total)
T18D0 001:404 JLINK_WriteReg(PSP, 0x20003000)  returns 0x00 (0000ms, 0870ms total)
T18D0 001:404 JLINK_WriteReg(CFBP, 0x00000000)  returns 0x00 (0000ms, 0870ms total)
T18D0 001:404 JLINK_SetBPEx(Addr = 0x20000000, Type = 0xFFFFFFF2)  returns 0x00000008 (0000ms, 0870ms total)
T18D0 001:404 JLINK_Go() -- CPU_ReadMem(4 bytes @ 0xE0001000) -- CPU_WriteMem(4 bytes @ 0xE0001000) (0004ms, 0874ms total)
T18D0 001:408 JLINK_IsHalted()  returns FALSE (0000ms, 0874ms total)
T18D0 001:410 JLINK_IsHalted()  returns FALSE (0000ms, 0875ms total)
T18D0 001:411 JLINK_IsHalted()  returns FALSE (0000ms, 0875ms total)
T18D0 001:412 JLINK_IsHalted()  returns FALSE (0000ms, 0875ms total)
T18D0 001:413 JLINK_IsHalted()  returns FALSE (0000ms, 0875ms total)
T18D0 001:414 JLINK_IsHalted()  returns FALSE (0000ms, 0875ms total)
T18D0 001:415 JLINK_IsHalted()  returns FALSE (0000ms, 0875ms total)
T18D0 001:416 JLINK_IsHalted()  returns FALSE (0000ms, 0875ms total)
T18D0 001:417 JLINK_IsHalted()  returns FALSE (0000ms, 0875ms total)
T18D0 001:418 JLINK_IsHalted()  returns FALSE (0000ms, 0875ms total)
T18D0 001:419 JLINK_IsHalted()  returns FALSE (0000ms, 0875ms total)
T18D0 001:420 JLINK_IsHalted()  returns FALSE (0000ms, 0875ms total)
T18D0 001:421 JLINK_IsHalted()  returns FALSE (0000ms, 0875ms total)
T18D0 001:422 JLINK_IsHalted()  returns FALSE (0000ms, 0875ms total)
T18D0 001:423 JLINK_IsHalted()  returns FALSE (0000ms, 0875ms total)
T18D0 001:424 JLINK_IsHalted()  returns FALSE (0000ms, 0875ms total)
T18D0 001:425 JLINK_IsHalted()  returns FALSE (0000ms, 0875ms total)
T18D0 001:426 JLINK_IsHalted()  returns FALSE (0000ms, 0875ms total)
T18D0 001:427 JLINK_IsHalted() -- CPU_ReadMem(2 bytes @ 0x20000000)  returns TRUE (0004ms, 0879ms total)
T18D0 001:431 JLINK_ReadReg(R15 (PC))  returns 0x20000000 (0000ms, 0875ms total)
T18D0 001:431 JLINK_ClrBPEx(BPHandle = 0x00000008)  returns 0x00 (0000ms, 0875ms total)
T18D0 001:431 JLINK_ReadReg(R0)  returns 0x00000000 (0000ms, 0875ms total)
T18D0 001:432 JLINK_WriteMem(0x20000C9C, 0x0200 Bytes, ...) - Data: C2 60 04 48 08 62 FE E7 C5 A3 00 00 00 B0 01 40 ... -- CPU_WriteMem(512 bytes @ 0x20000C9C)  returns 0x200 (0007ms, 0882ms total)
T18D0 001:439 JLINK_WriteReg(R0, 0x00000800)  returns 0x00 (0000ms, 0882ms total)
T18D0 001:439 JLINK_WriteReg(R1, 0x00000200)  returns 0x00 (0000ms, 0882ms total)
T18D0 001:439 JLINK_WriteReg(R2, 0x20000C9C)  returns 0x00 (0000ms, 0882ms total)
T18D0 001:439 JLINK_WriteReg(R3, 0x00000000)  returns 0x00 (0000ms, 0882ms total)
T18D0 001:439 JLINK_WriteReg(R4, 0x00000000)  returns 0x00 (0000ms, 0882ms total)
T18D0 001:439 JLINK_WriteReg(R5, 0x00000000)  returns 0x00 (0000ms, 0882ms total)
T18D0 001:439 JLINK_WriteReg(R6, 0x00000000)  returns 0x00 (0000ms, 0882ms total)
T18D0 001:439 JLINK_WriteReg(R7, 0x00000000)  returns 0x00 (0000ms, 0882ms total)
T18D0 001:439 JLINK_WriteReg(R8, 0x00000000)  returns 0x00 (0000ms, 0882ms total)
T18D0 001:439 JLINK_WriteReg(R9, 0x20000C38)  returns 0x00 (0000ms, 0882ms total)
T18D0 001:439 JLINK_WriteReg(R10, 0x00000000)  returns 0x00 (0000ms, 0882ms total)
T18D0 001:439 JLINK_WriteReg(R11, 0x00000000)  returns 0x00 (0000ms, 0882ms total)
T18D0 001:439 JLINK_WriteReg(R12, 0x00000000)  returns 0x00 (0000ms, 0882ms total)
T18D0 001:439 JLINK_WriteReg(R13 (SP), 0x20003000)  returns 0x00 (0000ms, 0882ms total)
T18D0 001:439 JLINK_WriteReg(R14, 0x20000001)  returns 0x00 (0000ms, 0882ms total)
T18D0 001:439 JLINK_WriteReg(R15 (PC), 0x20000346)  returns 0x00 (0000ms, 0882ms total)
T18D0 001:439 JLINK_WriteReg(XPSR, 0x01000000)  returns 0x00 (0000ms, 0882ms total)
T18D0 001:439 JLINK_WriteReg(MSP, 0x20003000)  returns 0x00 (0000ms, 0882ms total)
T18D0 001:439 JLINK_WriteReg(PSP, 0x20003000)  returns 0x00 (0000ms, 0882ms total)
T18D0 001:439 JLINK_WriteReg(CFBP, 0x00000000)  returns 0x00 (0000ms, 0882ms total)
T18D0 001:439 JLINK_SetBPEx(Addr = 0x20000000, Type = 0xFFFFFFF2)  returns 0x00000009 (0000ms, 0882ms total)
T18D0 001:439 JLINK_Go() -- CPU_ReadMem(4 bytes @ 0xE0001000) -- CPU_WriteMem(4 bytes @ 0xE0001000) (0005ms, 0887ms total)
T18D0 001:444 JLINK_IsHalted()  returns FALSE (0001ms, 0888ms total)
T18D0 001:446 JLINK_IsHalted()  returns FALSE (0000ms, 0887ms total)
T18D0 001:447 JLINK_IsHalted()  returns FALSE (0001ms, 0888ms total)
T18D0 001:449 JLINK_IsHalted()  returns FALSE (0000ms, 0887ms total)
T18D0 001:450 JLINK_IsHalted()  returns FALSE (0000ms, 0887ms total)
T18D0 001:451 JLINK_IsHalted()  returns FALSE (0000ms, 0887ms total)
T18D0 001:452 JLINK_IsHalted()  returns FALSE (0000ms, 0887ms total)
T18D0 001:453 JLINK_IsHalted()  returns FALSE (0000ms, 0887ms total)
T18D0 001:454 JLINK_IsHalted()  returns FALSE (0000ms, 0887ms total)
T18D0 001:455 JLINK_IsHalted()  returns FALSE (0000ms, 0887ms total)
T18D0 001:456 JLINK_IsHalted()  returns FALSE (0000ms, 0887ms total)
T18D0 001:457 JLINK_IsHalted()  returns FALSE (0001ms, 0888ms total)
T18D0 001:459 JLINK_IsHalted()  returns FALSE (0000ms, 0887ms total)
T18D0 001:469 JLINK_IsHalted() -- CPU_ReadMem(2 bytes @ 0x20000000)  returns TRUE (0004ms, 0891ms total)
T18D0 001:473 JLINK_ReadReg(R15 (PC))  returns 0x20000000 (0000ms, 0887ms total)
T18D0 001:473 JLINK_ClrBPEx(BPHandle = 0x00000009)  returns 0x00 (0000ms, 0887ms total)
T18D0 001:473 JLINK_ReadReg(R0)  returns 0x00000000 (0000ms, 0887ms total)
T18D0 001:474 JLINK_WriteMem(0x20000C9C, 0x0200 Bytes, ...) - Data: 18 98 0E E1 BB 0D 6A 7F 2D 3D 6D 08 97 6C 64 91 ... -- CPU_WriteMem(512 bytes @ 0x20000C9C)  returns 0x200 (0007ms, 0894ms total)
T18D0 001:481 JLINK_WriteReg(R0, 0x00000A00)  returns 0x00 (0000ms, 0894ms total)
T18D0 001:481 JLINK_WriteReg(R1, 0x00000200)  returns 0x00 (0000ms, 0894ms total)
T18D0 001:481 JLINK_WriteReg(R2, 0x20000C9C)  returns 0x00 (0000ms, 0894ms total)
T18D0 001:481 JLINK_WriteReg(R3, 0x00000000)  returns 0x00 (0000ms, 0894ms total)
T18D0 001:481 JLINK_WriteReg(R4, 0x00000000)  returns 0x00 (0000ms, 0894ms total)
T18D0 001:481 JLINK_WriteReg(R5, 0x00000000)  returns 0x00 (0000ms, 0894ms total)
T18D0 001:481 JLINK_WriteReg(R6, 0x00000000)  returns 0x00 (0000ms, 0894ms total)
T18D0 001:481 JLINK_WriteReg(R7, 0x00000000)  returns 0x00 (0000ms, 0894ms total)
T18D0 001:481 JLINK_WriteReg(R8, 0x00000000)  returns 0x00 (0000ms, 0894ms total)
T18D0 001:481 JLINK_WriteReg(R9, 0x20000C38)  returns 0x00 (0000ms, 0894ms total)
T18D0 001:481 JLINK_WriteReg(R10, 0x00000000)  returns 0x00 (0000ms, 0894ms total)
T18D0 001:481 JLINK_WriteReg(R11, 0x00000000)  returns 0x00 (0000ms, 0894ms total)
T18D0 001:481 JLINK_WriteReg(R12, 0x00000000)  returns 0x00 (0000ms, 0894ms total)
T18D0 001:481 JLINK_WriteReg(R13 (SP), 0x20003000)  returns 0x00 (0000ms, 0894ms total)
T18D0 001:481 JLINK_WriteReg(R14, 0x20000001)  returns 0x00 (0000ms, 0894ms total)
T18D0 001:481 JLINK_WriteReg(R15 (PC), 0x20000346)  returns 0x00 (0000ms, 0894ms total)
T18D0 001:481 JLINK_WriteReg(XPSR, 0x01000000)  returns 0x00 (0000ms, 0894ms total)
T18D0 001:481 JLINK_WriteReg(MSP, 0x20003000)  returns 0x00 (0000ms, 0894ms total)
T18D0 001:481 JLINK_WriteReg(PSP, 0x20003000)  returns 0x00 (0000ms, 0894ms total)
T18D0 001:481 JLINK_WriteReg(CFBP, 0x00000000)  returns 0x00 (0001ms, 0895ms total)
T18D0 001:482 JLINK_SetBPEx(Addr = 0x20000000, Type = 0xFFFFFFF2)  returns 0x0000000A (0000ms, 0895ms total)
T18D0 001:482 JLINK_Go() -- CPU_ReadMem(4 bytes @ 0xE0001000) -- CPU_WriteMem(4 bytes @ 0xE0001000) (0004ms, 0899ms total)
T18D0 001:486 JLINK_IsHalted()  returns FALSE (0001ms, 0900ms total)
T18D0 001:492 JLINK_IsHalted()  returns FALSE (0000ms, 0899ms total)
T18D0 001:493 JLINK_IsHalted()  returns FALSE (0000ms, 0899ms total)
T18D0 001:494 JLINK_IsHalted()  returns FALSE (0000ms, 0899ms total)
T18D0 001:495 JLINK_IsHalted()  returns FALSE (0000ms, 0899ms total)
T18D0 001:496 JLINK_IsHalted()  returns FALSE (0000ms, 0899ms total)
T18D0 001:497 JLINK_IsHalted()  returns FALSE (0000ms, 0899ms total)
T18D0 001:498 JLINK_IsHalted()  returns FALSE (0000ms, 0899ms total)
T18D0 001:499 JLINK_IsHalted()  returns FALSE (0000ms, 0899ms total)
T18D0 001:500 JLINK_IsHalted()  returns FALSE (0000ms, 0899ms total)
T18D0 001:501 JLINK_IsHalted()  returns FALSE (0000ms, 0899ms total)
T18D0 001:502 JLINK_IsHalted()  returns FALSE (0000ms, 0899ms total)
T18D0 001:503 JLINK_IsHalted()  returns FALSE (0000ms, 0899ms total)
T18D0 001:504 JLINK_IsHalted()  returns FALSE (0000ms, 0899ms total)
T18D0 001:505 JLINK_IsHalted() -- CPU_ReadMem(2 bytes @ 0x20000000)  returns TRUE (0004ms, 0903ms total)
T18D0 001:509 JLINK_ReadReg(R15 (PC))  returns 0x20000000 (0000ms, 0899ms total)
T18D0 001:509 JLINK_ClrBPEx(BPHandle = 0x0000000A)  returns 0x00 (0000ms, 0899ms total)
T18D0 001:509 JLINK_ReadReg(R0)  returns 0x00000000 (0000ms, 0899ms total)
T18D0 001:510 JLINK_WriteMem(0x20000C9C, 0x0200 Bytes, ...) - Data: 38 1B B6 0C 9B 8E D2 92 0D BE D5 E5 B7 EF DC 7C ... -- CPU_WriteMem(512 bytes @ 0x20000C9C)  returns 0x200 (0007ms, 0906ms total)
T18D0 001:517 JLINK_WriteReg(R0, 0x00000C00)  returns 0x00 (0000ms, 0906ms total)
T18D0 001:517 JLINK_WriteReg(R1, 0x00000200)  returns 0x00 (0000ms, 0906ms total)
T18D0 001:517 JLINK_WriteReg(R2, 0x20000C9C)  returns 0x00 (0000ms, 0906ms total)
T18D0 001:517 JLINK_WriteReg(R3, 0x00000000)  returns 0x00 (0000ms, 0906ms total)
T18D0 001:517 JLINK_WriteReg(R4, 0x00000000)  returns 0x00 (0000ms, 0906ms total)
T18D0 001:517 JLINK_WriteReg(R5, 0x00000000)  returns 0x00 (0000ms, 0906ms total)
T18D0 001:517 JLINK_WriteReg(R6, 0x00000000)  returns 0x00 (0000ms, 0906ms total)
T18D0 001:517 JLINK_WriteReg(R7, 0x00000000)  returns 0x00 (0000ms, 0906ms total)
T18D0 001:517 JLINK_WriteReg(R8, 0x00000000)  returns 0x00 (0000ms, 0906ms total)
T18D0 001:517 JLINK_WriteReg(R9, 0x20000C38)  returns 0x00 (0000ms, 0906ms total)
T18D0 001:517 JLINK_WriteReg(R10, 0x00000000)  returns 0x00 (0000ms, 0906ms total)
T18D0 001:517 JLINK_WriteReg(R11, 0x00000000)  returns 0x00 (0000ms, 0906ms total)
T18D0 001:517 JLINK_WriteReg(R12, 0x00000000)  returns 0x00 (0000ms, 0906ms total)
T18D0 001:517 JLINK_WriteReg(R13 (SP), 0x20003000)  returns 0x00 (0000ms, 0906ms total)
T18D0 001:517 JLINK_WriteReg(R14, 0x20000001)  returns 0x00 (0000ms, 0906ms total)
T18D0 001:517 JLINK_WriteReg(R15 (PC), 0x20000346)  returns 0x00 (0000ms, 0906ms total)
T18D0 001:517 JLINK_WriteReg(XPSR, 0x01000000)  returns 0x00 (0000ms, 0906ms total)
T18D0 001:517 JLINK_WriteReg(MSP, 0x20003000)  returns 0x00 (0000ms, 0906ms total)
T18D0 001:517 JLINK_WriteReg(PSP, 0x20003000)  returns 0x00 (0000ms, 0906ms total)
T18D0 001:517 JLINK_WriteReg(CFBP, 0x00000000)  returns 0x00 (0000ms, 0906ms total)
T18D0 001:517 JLINK_SetBPEx(Addr = 0x20000000, Type = 0xFFFFFFF2)  returns 0x0000000B (0000ms, 0906ms total)
T18D0 001:517 JLINK_Go() -- CPU_ReadMem(4 bytes @ 0xE0001000) -- CPU_WriteMem(4 bytes @ 0xE0001000) (0004ms, 0910ms total)
T18D0 001:521 JLINK_IsHalted()  returns FALSE (0001ms, 0911ms total)
T18D0 001:523 JLINK_IsHalted()  returns FALSE (0000ms, 0910ms total)
T18D0 001:524 JLINK_IsHalted()  returns FALSE (0000ms, 0910ms total)
T18D0 001:525 JLINK_IsHalted()  returns FALSE (0000ms, 0910ms total)
T18D0 001:526 JLINK_IsHalted()  returns FALSE (0000ms, 0910ms total)
T18D0 001:527 JLINK_IsHalted()  returns FALSE (0000ms, 0910ms total)
T18D0 001:528 JLINK_IsHalted()  returns FALSE (0000ms, 0910ms total)
T18D0 001:529 JLINK_IsHalted()  returns FALSE (0000ms, 0910ms total)
T18D0 001:530 JLINK_IsHalted()  returns FALSE (0000ms, 0910ms total)
T18D0 001:531 JLINK_IsHalted()  returns FALSE (0000ms, 0910ms total)
T18D0 001:532 JLINK_IsHalted()  returns FALSE (0000ms, 0910ms total)
T18D0 001:533 JLINK_IsHalted()  returns FALSE (0000ms, 0910ms total)
T18D0 001:534 JLINK_IsHalted()  returns FALSE (0000ms, 0910ms total)
T18D0 001:535 JLINK_IsHalted()  returns FALSE (0000ms, 0910ms total)
T18D0 001:536 JLINK_IsHalted()  returns FALSE (0000ms, 0910ms total)
T18D0 001:537 JLINK_IsHalted()  returns FALSE (0000ms, 0910ms total)
T18D0 001:538 JLINK_IsHalted()  returns FALSE (0000ms, 0910ms total)
T18D0 001:539 JLINK_IsHalted()  returns FALSE (0000ms, 0910ms total)
T18D0 001:540 JLINK_IsHalted() -- CPU_ReadMem(2 bytes @ 0x20000000)  returns TRUE (0004ms, 0914ms total)
T18D0 001:544 JLINK_ReadReg(R15 (PC))  returns 0x20000000 (0000ms, 0910ms total)
T18D0 001:544 JLINK_ClrBPEx(BPHandle = 0x0000000B)  returns 0x00 (0000ms, 0910ms total)
T18D0 001:544 JLINK_ReadReg(R0)  returns 0x00000000 (0000ms, 0910ms total)
T18D0 001:545 JLINK_WriteMem(0x20000C9C, 0x0200 Bytes, ...) - Data: 10 46 70 47 03 46 03 22 08 70 00 0A 49 1C 52 1E ... -- CPU_WriteMem(512 bytes @ 0x20000C9C)  returns 0x200 (0007ms, 0917ms total)
T18D0 001:552 JLINK_WriteReg(R0, 0x00000E00)  returns 0x00 (0000ms, 0917ms total)
T18D0 001:552 JLINK_WriteReg(R1, 0x000000B0)  returns 0x00 (0000ms, 0917ms total)
T18D0 001:552 JLINK_WriteReg(R2, 0x20000C9C)  returns 0x00 (0000ms, 0917ms total)
T18D0 001:552 JLINK_WriteReg(R3, 0x00000000)  returns 0x00 (0000ms, 0917ms total)
T18D0 001:552 JLINK_WriteReg(R4, 0x00000000)  returns 0x00 (0000ms, 0917ms total)
T18D0 001:552 JLINK_WriteReg(R5, 0x00000000)  returns 0x00 (0000ms, 0917ms total)
T18D0 001:552 JLINK_WriteReg(R6, 0x00000000)  returns 0x00 (0000ms, 0917ms total)
T18D0 001:552 JLINK_WriteReg(R7, 0x00000000)  returns 0x00 (0000ms, 0917ms total)
T18D0 001:552 JLINK_WriteReg(R8, 0x00000000)  returns 0x00 (0000ms, 0917ms total)
T18D0 001:552 JLINK_WriteReg(R9, 0x20000C38)  returns 0x00 (0000ms, 0917ms total)
T18D0 001:552 JLINK_WriteReg(R10, 0x00000000)  returns 0x00 (0000ms, 0917ms total)
T18D0 001:552 JLINK_WriteReg(R11, 0x00000000)  returns 0x00 (0000ms, 0917ms total)
T18D0 001:552 JLINK_WriteReg(R12, 0x00000000)  returns 0x00 (0000ms, 0917ms total)
T18D0 001:552 JLINK_WriteReg(R13 (SP), 0x20003000)  returns 0x00 (0000ms, 0917ms total)
T18D0 001:552 JLINK_WriteReg(R14, 0x20000001)  returns 0x00 (0000ms, 0917ms total)
T18D0 001:552 JLINK_WriteReg(R15 (PC), 0x20000346)  returns 0x00 (0000ms, 0917ms total)
T18D0 001:552 JLINK_WriteReg(XPSR, 0x01000000)  returns 0x00 (0000ms, 0917ms total)
T18D0 001:552 JLINK_WriteReg(MSP, 0x20003000)  returns 0x00 (0000ms, 0917ms total)
T18D0 001:552 JLINK_WriteReg(PSP, 0x20003000)  returns 0x00 (0000ms, 0917ms total)
T18D0 001:552 JLINK_WriteReg(CFBP, 0x00000000)  returns 0x00 (0000ms, 0917ms total)
T18D0 001:552 JLINK_SetBPEx(Addr = 0x20000000, Type = 0xFFFFFFF2)  returns 0x0000000C (0000ms, 0917ms total)
T18D0 001:552 JLINK_Go() -- CPU_ReadMem(4 bytes @ 0xE0001000) -- CPU_WriteMem(4 bytes @ 0xE0001000) (0005ms, 0922ms total)
T18D0 001:557 JLINK_IsHalted()  returns FALSE (0000ms, 0922ms total)
T18D0 001:558 JLINK_IsHalted()  returns FALSE (0000ms, 0922ms total)
T18D0 001:559 JLINK_IsHalted()  returns FALSE (0001ms, 0923ms total)
T18D0 001:561 JLINK_IsHalted()  returns FALSE (0000ms, 0923ms total)
T18D0 001:562 JLINK_IsHalted()  returns FALSE (0000ms, 0923ms total)
T18D0 001:563 JLINK_IsHalted()  returns FALSE (0000ms, 0923ms total)
T18D0 001:564 JLINK_IsHalted()  returns FALSE (0000ms, 0923ms total)
T18D0 001:565 JLINK_IsHalted()  returns FALSE (0000ms, 0923ms total)
T18D0 001:566 JLINK_IsHalted()  returns FALSE (0000ms, 0923ms total)
T18D0 001:570 JLINK_IsHalted() -- CPU_ReadMem(2 bytes @ 0x20000000)  returns TRUE (0004ms, 0927ms total)
T18D0 001:574 JLINK_ReadReg(R15 (PC))  returns 0x20000000 (0000ms, 0923ms total)
T18D0 001:574 JLINK_ClrBPEx(BPHandle = 0x0000000C)  returns 0x00 (0000ms, 0923ms total)
T18D0 001:574 JLINK_ReadReg(R0)  returns 0x00000000 (0000ms, 0923ms total)
T18D0 001:575 JLINK_WriteMem(0x20000C9C, 0x0200 Bytes, ...) - Data: FF FF FF FF FF FF FF FF FF FF FF FF FF FF FF FF ... -- CPU_WriteMem(512 bytes @ 0x20000C9C)  returns 0x200 (0007ms, 0930ms total)
T18D0 001:582 JLINK_WriteReg(R0, 0x00001E00)  returns 0x00 (0000ms, 0930ms total)
T18D0 001:582 JLINK_WriteReg(R1, 0x00000200)  returns 0x00 (0000ms, 0930ms total)
T18D0 001:582 JLINK_WriteReg(R2, 0x20000C9C)  returns 0x00 (0000ms, 0930ms total)
T18D0 001:582 JLINK_WriteReg(R3, 0x00000000)  returns 0x00 (0000ms, 0930ms total)
T18D0 001:582 JLINK_WriteReg(R4, 0x00000000)  returns 0x00 (0000ms, 0930ms total)
T18D0 001:582 JLINK_WriteReg(R5, 0x00000000)  returns 0x00 (0000ms, 0930ms total)
T18D0 001:582 JLINK_WriteReg(R6, 0x00000000)  returns 0x00 (0000ms, 0930ms total)
T18D0 001:582 JLINK_WriteReg(R7, 0x00000000)  returns 0x00 (0000ms, 0930ms total)
T18D0 001:582 JLINK_WriteReg(R8, 0x00000000)  returns 0x00 (0000ms, 0930ms total)
T18D0 001:582 JLINK_WriteReg(R9, 0x20000C38)  returns 0x00 (0000ms, 0930ms total)
T18D0 001:582 JLINK_WriteReg(R10, 0x00000000)  returns 0x00 (0000ms, 0930ms total)
T18D0 001:582 JLINK_WriteReg(R11, 0x00000000)  returns 0x00 (0000ms, 0930ms total)
T18D0 001:582 JLINK_WriteReg(R12, 0x00000000)  returns 0x00 (0000ms, 0930ms total)
T18D0 001:582 JLINK_WriteReg(R13 (SP), 0x20003000)  returns 0x00 (0000ms, 0930ms total)
T18D0 001:582 JLINK_WriteReg(R14, 0x20000001)  returns 0x00 (0000ms, 0930ms total)
T18D0 001:582 JLINK_WriteReg(R15 (PC), 0x20000346)  returns 0x00 (0000ms, 0930ms total)
T18D0 001:582 JLINK_WriteReg(XPSR, 0x01000000)  returns 0x00 (0000ms, 0930ms total)
T18D0 001:582 JLINK_WriteReg(MSP, 0x20003000)  returns 0x00 (0000ms, 0930ms total)
T18D0 001:582 JLINK_WriteReg(PSP, 0x20003000)  returns 0x00 (0000ms, 0930ms total)
T18D0 001:582 JLINK_WriteReg(CFBP, 0x00000000)  returns 0x00 (0000ms, 0930ms total)
T18D0 001:582 JLINK_SetBPEx(Addr = 0x20000000, Type = 0xFFFFFFF2)  returns 0x0000000D (0000ms, 0930ms total)
T18D0 001:582 JLINK_Go() -- CPU_ReadMem(4 bytes @ 0xE0001000) -- CPU_WriteMem(4 bytes @ 0xE0001000) (0004ms, 0934ms total)
T18D0 001:586 JLINK_IsHalted()  returns FALSE (0001ms, 0935ms total)
T18D0 001:588 JLINK_IsHalted()  returns FALSE (0000ms, 0934ms total)
T18D0 001:589 JLINK_IsHalted()  returns FALSE (0000ms, 0934ms total)
T18D0 001:590 JLINK_IsHalted()  returns FALSE (0000ms, 0934ms total)
T18D0 001:591 JLINK_IsHalted()  returns FALSE (0000ms, 0934ms total)
T18D0 001:592 JLINK_IsHalted()  returns FALSE (0000ms, 0934ms total)
T18D0 001:593 JLINK_IsHalted()  returns FALSE (0000ms, 0934ms total)
T18D0 001:594 JLINK_IsHalted()  returns FALSE (0000ms, 0934ms total)
T18D0 001:595 JLINK_IsHalted()  returns FALSE (0000ms, 0934ms total)
T18D0 001:596 JLINK_IsHalted()  returns FALSE (0000ms, 0934ms total)
T18D0 001:597 JLINK_IsHalted()  returns FALSE (0000ms, 0934ms total)
T18D0 001:598 JLINK_IsHalted()  returns FALSE (0000ms, 0934ms total)
T18D0 001:599 JLINK_IsHalted()  returns FALSE (0000ms, 0934ms total)
T18D0 001:600 JLINK_IsHalted()  returns FALSE (0000ms, 0934ms total)
T18D0 001:601 JLINK_IsHalted()  returns FALSE (0000ms, 0934ms total)
T18D0 001:602 JLINK_IsHalted()  returns FALSE (0000ms, 0934ms total)
T18D0 001:603 JLINK_IsHalted()  returns FALSE (0000ms, 0934ms total)
T18D0 001:604 JLINK_IsHalted()  returns FALSE (0000ms, 0934ms total)
T18D0 001:605 JLINK_IsHalted() -- CPU_ReadMem(2 bytes @ 0x20000000)  returns TRUE (0004ms, 0938ms total)
T18D0 001:609 JLINK_ReadReg(R15 (PC))  returns 0x20000000 (0000ms, 0934ms total)
T18D0 001:609 JLINK_ClrBPEx(BPHandle = 0x0000000D)  returns 0x00 (0000ms, 0934ms total)
T18D0 001:609 JLINK_ReadReg(R0)  returns 0x00000000 (0000ms, 0934ms total)
T18D0 001:610 JLINK_WriteMem(0x20000C9C, 0x0200 Bytes, ...) - Data: 08 48 80 47 08 48 80 47 70 46 69 46 07 4A 08 4B ... -- CPU_WriteMem(512 bytes @ 0x20000C9C)  returns 0x200 (0007ms, 0941ms total)
T18D0 001:617 JLINK_WriteReg(R0, 0x00002000)  returns 0x00 (0000ms, 0941ms total)
T18D0 001:617 JLINK_WriteReg(R1, 0x00000200)  returns 0x00 (0000ms, 0941ms total)
T18D0 001:617 JLINK_WriteReg(R2, 0x20000C9C)  returns 0x00 (0000ms, 0941ms total)
